
T07FC 001:315 SEGGER J-Link V4.62 Log File (0001ms, 1316ms total)
T07FC 001:315 DLL Compiled: Jan 25 2013 15:19:47 (0001ms, 1316ms total)
T07FC 001:315 Logging started @ 2013-08-06 16:29 (0001ms, 1316ms total)
T07FC 001:316 JLINK_SetWarnOutHandler(...) (0000ms, 1316ms total)
T07FC 001:316 JLINK_OpenEx(...)
Firmware: J-Link ARM V8 compiled Dec  1 2009 11:42:48
Hardware: V8.00
S/N: 17935099
Feature(s): RDI,FlashDL,FlashBP,JFlash  returns O.K. (0579ms, 1895ms total)
T07FC 001:895 JLINK_SetErrorOutHandler(...) (0000ms, 1895ms total)
T07FC 001:895 JLINK_ExecCommand("ProjectFile = "C:\Documents and Settings\dell\×ÀÃæ\ucGuiucOs\uCGUI+uCOS_V1.2\User\JLinkSettings.ini"", ...)  returns 0x00 (0009ms, 1904ms total)
T07FC 001:904 JLINK_ExecCommand("Device = STM32F103ZE", ...)
                JLINK_ExecCommand("map ram 0x20000000 - 0x2000FFFF", ...)  returns 0x00 (0000ms, 0000ms total)
                JLINK_AddMirrorAreaEx(Addr = 0x00000000, Size = 0x00000000) (0000ms, 0000ms total)
              Device "STM32F103ZE" selected (512 KB flash, 64 KB RAM).  returns 0x00 (0004ms, 1908ms total)
T07FC 001:908 JLINK_ExecCommand("DisableConnectionTimeout", ...)  returns 0x00 (0000ms, 1908ms total)
T07FC 001:908 JLINK_TIF_Select(JLINKARM_TIF_SWD)  returns 0x00 (0005ms, 1913ms total)
T07FC 001:913 JLINK_SetSpeed(5000) (0001ms, 1914ms total)
T07FC 001:914 JLINK_GetHardwareVersion()  returns 0x13880 (0000ms, 1914ms total)
T07FC 001:914 JLINK_GetDLLVersion()  returns 46200 (0000ms, 1914ms total)
T07FC 001:914 JLINK_GetFirmwareString(...) (0000ms, 1914ms total)
T07FC 001:914 JLINK_GetDLLVersion()  returns 46200 (0000ms, 1914ms total)
T07FC 001:914 JLINK_GetCompileDateTime() (0000ms, 1914ms total)
T07FC 001:914 JLINK_GetFirmwareString(...) (0000ms, 1914ms total)
T07FC 001:914 JLINK_GetHardwareVersion()  returns 0x13880 (0000ms, 1914ms total)
T07FC 001:914 JLINK_GetId() >0x108 TIF>Found SWD-DP with ID 0x1BA01477 >0x0D TIF> >0x28 TIF> >0x0D TIF> >0x28 TIF> >0x0D TIF> >0x21 TIF> >0x0D TIF> >0x28 TIF> >0x0D TIF> >0x28 TIF> >0x0D TIF> >0x28 TIF> >0x0D TIF> >0x21 TIF> >0x0D TIF> >0x21 TIF> >0x0D TIF> >0x28 TIF> >0x0D TIF> >0x21 TIF> >0x0D TIF> >0x21 TIF> >0x108 TIF>Found SWD-DP with ID 0x1BA01477 >0x0D TIF> >0x21 TIF> >0x0D TIF> >0x28 TIF> >0x0D TIF> >0x28 TIF> >0x0D TIF> >0x21 TIF> >0x0D TIF> >0x21 TIF> >0x0D TIF> >0x28 TIF> >0x0D TIF> >0x21 TIF>
 >0x0D TIF> >0x21 TIF> >0x0D TIF> >0x21 TIF> >0x0D TIF> >0x21 TIF> >0x0D TIF> >0x28 TIF> >0x0D TIF> >0x21 TIF> >0x0D TIF> >0x28 TIF> >0x0D TIF> >0x28 TIF> >0x0D TIF> >0x21 TIF> >0x0D TIF> >0x21 TIF> >0x0D TIF> >0x28 TIF> >0x0D TIF> >0x21 TIF> >0x0D TIF> >0x21 TIF> >0x0D TIF> >0x28 TIF> >0x0D TIF> >0x28 TIF> >0x0D TIF> >0x28 TIF> >0x0D TIF> >0x21 TIF> >0x0D TIF> >0x21 TIF> >0x0D TIF> >0x28 TIF> >0x0D TIF> >0x28 TIF> >0x0D TIF> >0x28 TIF> >0x0D TIF> >0x21 TIF> >0x0D TIF> >0x21 TIF> >0x0D TIF> >0x21 TIF>
TPIU fitted.ETM fitted. >0x0D TIF> >0x28 TIF> >0x0D TIF> >0x21 TIF> >0x0D TIF> >0x21 TIF> >0x0D TIF> >0x28 TIF> >0x0D TIF> >0x21 TIF> >0x0D TIF> >0x21 TIF>FPUnit: 6 code (BP) slots and 2 literal slots >0x0D TIF> >0x28 TIF> >0x0D TIF> >0x21 TIF> >0x0D TIF> >0x21 TIF> >0x0D TIF> >0x28 TIF> >0x0D TIF> >0x21 TIF> >0x0D TIF> >0x21 TIF> >0x0D TIF> >0x28 TIF> >0x0D TIF> >0x21 TIF> >0x0D TIF> >0x21 TIF> >0x0D TIF> >0x28 TIF> >0x0D TIF> >0x21 TIF> >0x0D TIF> >0x21 TIF>Found Cortex-M3 r1p1, Little endian.
 >0x0D TIF> >0x28 TIF> >0x0D TIF> >0x21 TIF>  returns 0x1BA01477 (0267ms, 2181ms total)
T07FC 002:181 JLINK_GetDeviceFamily()  returns 3 (0000ms, 2181ms total)
T07FC 002:181 JLINK_ReadMem (0xE00FFFF0, 0x0010 Bytes, ...) -- CPU is running -- CPU_ReadMem(16 bytes @ 0xE00FFFF0) -- Data:  0D 00 00 00 10 00 00 00 05 00 00 00 B1 00 00 00  returns 0x00 (0003ms, 2184ms total)
T07FC 002:184 JLINK_ReadMem (0xE00FFFD0, 0x0020 Bytes, ...) -- CPU is running -- CPU_ReadMem(32 bytes @ 0xE00FFFD0) -- Data:  00 00 00 00 00 00 00 00 00 00 00 00 00 00 00 00 ...  returns 0x00 (0001ms, 2185ms total)
T07FC 002:185 JLINK_ReadMem (0xE00FF000, 0x0018 Bytes, ...) -- CPU is running -- CPU_ReadMem(24 bytes @ 0xE00FF000) -- Data:  03 F0 F0 FF 03 20 F0 FF 03 30 F0 FF 03 10 F0 FF ...  returns 0x00 (0002ms, 2187ms total)
T07FC 002:187 JLINK_ReadMemU32(0xE000ED00, 0x0001 Items, ...) -- CPU is running -- CPU_ReadMem(4 bytes @ 0xE000ED00) -- Data:  31 C2 1F 41  returns 0x01 (0001ms, 2188ms total)
T07FC 002:188 JLINK_SetResetType(JLINKARM_RESET_TYPE_NORMAL)  returns JLINKARM_RESET_TYPE_NORMAL (0000ms, 2188ms total)
T07FC 002:188 JLINK_Reset() -- CPU_WriteMem(4 bytes @ 0xE0002000) (0014ms, 2202ms total)
T07FC 002:202 JLINK_ReadReg(R15)  returns 0x08009A44 (0000ms, 2202ms total)
T07FC 002:202 JLINK_ReadReg(XPSR)  returns 0x01000000 (0000ms, 2202ms total)
T07FC 002:202 JLINK_Halt()  returns 0x00 (0000ms, 2202ms total)
T07FC 002:202 JLINK_IsHalted()  returns TRUE (0000ms, 2202ms total)
T07FC 002:202 JLINK_ReadMemU32(0xE000EDF0, 0x0001 Items, ...) -- CPU_ReadMem(4 bytes @ 0xE000EDF0) -- Data:  03 00 03 00  returns 0x01 (0001ms, 2203ms total)
T07FC 002:203 JLINK_WriteU32(0xE000EDF0, 0xA05F0003) -- CPU_WriteMem(4 bytes @ 0xE000EDF0)  returns 0x00 (0001ms, 2204ms total)
T07FC 002:204 JLINK_WriteU32(0xE000EDFC, 0x01000000) -- CPU_WriteMem(4 bytes @ 0xE000EDFC)  returns 0x00 (0001ms, 2205ms total)
T07FC 002:205 JLINK_GetHWStatus(...)  returns 0x00 (0001ms, 2206ms total)
T07FC 002:206 JLINK_GetNumBPUnits(Type = 0xFFFFFF00)  returns 0x06 (0000ms, 2206ms total)
T07FC 002:206 JLINK_GetNumBPUnits(Type = 0xF0)  returns 0x2000 (0000ms, 2206ms total)
T07FC 002:206 JLINK_GetNumWPUnits()  returns 0x04 (0000ms, 2206ms total)
T07FC 002:206 JLINK_GetSpeed()  returns 0xFA0 (0000ms, 2206ms total)
T07FC 002:207 JLINK_ReadMemU32(0xE000E004, 0x0001 Items, ...) -- CPU_ReadMem(4 bytes @ 0xE000E004) -- Data:  01 00 00 00  returns 0x01 (0001ms, 2207ms total)
T07FC 002:208 JLINK_ReadMemU32(0xE000E004, 0x0001 Items, ...) -- CPU_ReadMem(4 bytes @ 0xE000E004) -- Data:  01 00 00 00  returns 0x01 (0001ms, 2208ms total)
T07FC 002:209 JLINK_WriteMem(0xE0001000, 0x001C Bytes, ...) -- Data:  01 00 00 00 00 00 00 00 00 00 00 00 00 00 00 00 ... -- CPU_WriteMem(28 bytes @ 0xE0001000)  returns 0x1C (0001ms, 2209ms total)
T07FC 002:210 JLINK_ReadMem (0xE0001000, 0x001C Bytes, ...) -- CPU_ReadMem(28 bytes @ 0xE0001000) -- Data:  01 00 00 40 00 00 00 00 00 00 00 00 00 00 00 00 ...  returns 0x00 (0001ms, 2210ms total)
T07FC 002:211 JLINK_ReadReg(R15)  returns 0x08009A44 (0000ms, 2210ms total)
T07FC 002:211 JLINK_ReadReg(XPSR)  returns 0x01000000 (0000ms, 2210ms total)
T07FC 002:373 JLINK_SetResetType(JLINKARM_RESET_TYPE_NORMAL)  returns JLINKARM_RESET_TYPE_NORMAL (0000ms, 2210ms total)
T07FC 002:373 JLINK_Reset() -- CPU_WriteMem(4 bytes @ 0xE0002000) (0014ms, 2224ms total)
T07FC 002:388 JLINK_ReadReg(R15)  returns 0x08009A44 (0000ms, 2224ms total)
T07FC 002:388 JLINK_ReadReg(XPSR)  returns 0x01000000 (0000ms, 2224ms total)
T07FC 002:388 JLINK_ReadMemU32(0xE0001004, 0x0001 Items, ...) -- CPU_ReadMem(4 bytes @ 0xE0001004) -- Data:  00 00 00 00  returns 0x01 (0000ms, 2224ms total)
T07FC 002:428 JLINK_ReadMem (0x08009944, 0x003C Bytes, ...) -- CPU_ReadMem(64 bytes @ 0x08009940) -- Updating C cache (64 bytes @ 0x08009940) -- Read from C cache (60 bytes @ 0x08009944) -- Data:  10 B5 36 48 00 68 40 F0 01 00 34 49 08 60 08 46 ...  returns 0x00 (0001ms, 2225ms total)
T07FC 002:429 JLINK_ReadMem (0x08009980, 0x003C Bytes, ...) -- CPU_ReadMem(64 bytes @ 0x08009980) -- Updating C cache (64 bytes @ 0x08009980) -- Read from C cache (60 bytes @ 0x08009980) -- Data:  1F 00 88 60 FF F7 DA FF 4F F0 00 60 28 49 08 60 ...  returns 0x00 (0001ms, 2226ms total)
T07FC 002:430 JLINK_ReadMem (0x080099BC, 0x003C Bytes, ...) -- CPU_ReadMem(64 bytes @ 0x080099C0) -- Updating C cache (64 bytes @ 0x080099C0) -- Read from C cache (60 bytes @ 0x080099BC) -- Data:  23 E0 18 4B 5B 68 03 F4 70 10 16 4B 5B 68 03 F4 ...  returns 0x00 (0002ms, 2228ms total)
T07FC 002:432 JLINK_ReadMem (0x080099F8, 0x003C Bytes, ...) -- CPU_ReadMem(64 bytes @ 0x08009A00) -- Updating C cache (64 bytes @ 0x08009A00) -- Read from C cache (60 bytes @ 0x080099F8) -- Data:  0F 4C 23 60 03 E0 0D 4B 0D 4C 23 60 00 BF 00 BF ...  returns 0x00 (0001ms, 2229ms total)
T07FC 002:433 JLINK_ReadMem (0x08009A42, 0x0002 Bytes, ...) -- CPU_ReadMem(64 bytes @ 0x08009A40) -- Updating C cache (64 bytes @ 0x08009A40) -- Read from C cache (2 bytes @ 0x08009A42) -- Data:  00 20  returns 0x00 (0001ms, 2230ms total)
T07FC 002:434 JLINK_ReadMem (0x08009A44, 0x003C Bytes, ...) -- Read from C cache (60 bytes @ 0x08009A44) -- Data:  06 48 80 47 06 48 00 47 FE E7 FE E7 FE E7 FE E7 ...  returns 0x00 (0000ms, 2230ms total)
T2200 012:763 JLINK_SetBPEx(Addr = 0x0800171E, Type = 0xFFFFFFF2)  returns 0x00000001 (0002ms, 2232ms total)
T2200 012:765 JLINK_Go() -- CPU_WriteMem(4 bytes @ 0xE0002008) -- CPU_WriteMem(4 bytes @ 0xE000200C) -- CPU_WriteMem(4 bytes @ 0xE0002010) -- CPU_WriteMem(4 bytes @ 0xE0002014) -- CPU_WriteMem(4 bytes @ 0xE0002018) -- CPU_WriteMem(4 bytes @ 0xE000201C) (0011ms, 2243ms total)
T2200 012:876 JLINK_IsHalted()  returns TRUE (0004ms, 2247ms total)
T2200 012:880 JLINK_Halt()  returns 0x00 (0000ms, 2243ms total)
T2200 012:880 JLINK_IsHalted()  returns TRUE (0000ms, 2243ms total)
T2200 012:880 JLINK_IsHalted()  returns TRUE (0000ms, 2243ms total)
T2200 012:880 JLINK_IsHalted()  returns TRUE (0000ms, 2243ms total)
T2200 012:880 JLINK_ReadReg(R15)  returns 0x0800171E (0000ms, 2243ms total)
T2200 012:880 JLINK_ReadReg(XPSR)  returns 0x61000000 (0000ms, 2243ms total)
T2200 012:883 JLINK_ClrBPEx(BPHandle = 0x00000001)  returns 0x00 (0000ms, 2243ms total)
T2200 012:883 JLINK_ReadMemU32(0xE000ED30, 0x0001 Items, ...) -- CPU_ReadMem(4 bytes @ 0xE000ED30) -- Data:  0B 00 00 00  returns 0x01 (0001ms, 2244ms total)
T2200 012:884 JLINK_ReadMemU32(0xE0001028, 0x0001 Items, ...) -- CPU_ReadMem(4 bytes @ 0xE0001028) -- Data:  00 00 00 00  returns 0x01 (0001ms, 2245ms total)
T2200 012:885 JLINK_ReadMemU32(0xE0001038, 0x0001 Items, ...) -- CPU_ReadMem(4 bytes @ 0xE0001038) -- Data:  00 00 00 00  returns 0x01 (0001ms, 2246ms total)
T2200 012:886 JLINK_ReadMemU32(0xE0001048, 0x0001 Items, ...) -- CPU_ReadMem(4 bytes @ 0xE0001048) -- Data:  00 00 00 00  returns 0x01 (0001ms, 2247ms total)
T2200 012:887 JLINK_ReadMemU32(0xE0001058, 0x0001 Items, ...) -- CPU_ReadMem(4 bytes @ 0xE0001058) -- Data:  00 00 00 00  returns 0x01 (0001ms, 2248ms total)
T2200 012:888 JLINK_ReadReg(R0)  returns 0x0800171F (0000ms, 2248ms total)
T2200 012:888 JLINK_ReadReg(R1)  returns 0x200071D8 (0000ms, 2248ms total)
T2200 012:888 JLINK_ReadReg(R2)  returns 0x00000000 (0000ms, 2248ms total)
T2200 012:888 JLINK_ReadReg(R3)  returns 0x0800F0C9 (0000ms, 2248ms total)
T2200 012:888 JLINK_ReadReg(R4)  returns 0x08014590 (0000ms, 2248ms total)
T2200 012:888 JLINK_ReadReg(R5)  returns 0x08014590 (0000ms, 2248ms total)
T2200 012:888 JLINK_ReadReg(R6)  returns 0xE000E000 (0000ms, 2248ms total)
T2200 012:888 JLINK_ReadReg(R7)  returns 0x00000000 (0000ms, 2248ms total)
T2200 012:888 JLINK_ReadReg(R8)  returns 0x00000000 (0000ms, 2248ms total)
T2200 012:888 JLINK_ReadReg(R9)  returns 0x20000160 (0000ms, 2248ms total)
T2200 012:888 JLINK_ReadReg(R10)  returns 0x00000000 (0000ms, 2248ms total)
T2200 012:888 JLINK_ReadReg(R11)  returns 0x00000000 (0000ms, 2248ms total)
T2200 012:888 JLINK_ReadReg(R12)  returns 0x08002887 (0000ms, 2248ms total)
T2200 012:888 JLINK_ReadReg(R13)  returns 0x200071D8 (0000ms, 2248ms total)
T2200 012:888 JLINK_ReadReg(R14)  returns 0x0800F035 (0001ms, 2249ms total)
T2200 012:889 JLINK_ReadReg(R15)  returns 0x0800171E (0000ms, 2249ms total)
T2200 012:889 JLINK_ReadReg(XPSR)  returns 0x61000000 (0000ms, 2249ms total)
T2200 012:889 JLINK_ReadReg(MSP)  returns 0x200071D8 (0000ms, 2249ms total)
T2200 012:889 JLINK_ReadReg(PSP)  returns 0x20000800 (0000ms, 2249ms total)
T2200 012:889 JLINK_ReadReg(CFBP)  returns 0x00000000 (0000ms, 2249ms total)
T07FC 014:354 JLINK_ReadMem (0x00000000, 0x0002 Bytes, ...)
                JLINK_ReadMemHW(0x00000000, 0x0004 Bytes, ...) -- CPU_ReadMem(4 bytes @ 0x00000000) -- Data:  D8 71 00 20  returns 0x00 (0001ms, 0001ms total)
                JLINK_ReadMemHW(0x08000000, 0x0004 Bytes, ...) -- CPU_ReadMem(4 bytes @ 0x08000000) -- Data:  D8 71 00 20  returns 0x00 (0001ms, 0002ms total)
                JLINK_WriteMemHW(0x00000000, 0x0004 Bytes, ...) -- Data:  09 00 01 00 -- CPU_WriteMem(4 bytes @ 0x00000000)  returns 0x04 (0001ms, 0003ms total)
                JLINK_ReadMemHW(0x00000000, 0x0004 Bytes, ...) -- CPU_ReadMem(4 bytes @ 0x00000000) -- Data:  D8 71 00 20  returns 0x00 (0001ms, 0004ms total)
               -- MA0 is in flash -- Unmirror addr 0x00000000 -- CPU_ReadMem(64 bytes @ 0x08000000) -- Updating C cache (64 bytes @ 0x08000000) -- Read from C cache (2 bytes @ 0x08000000) -- Data:  D8 71  returns 0x00 (0005ms, 2254ms total)
T07FC 014:362 JLINK_ReadMemU32(0xE0001004, 0x0001 Items, ...) -- CPU_ReadMem(4 bytes @ 0xE0001004) -- Data:  00 00 00 00  returns 0x01 (0001ms, 2255ms total)
T07FC 014:364 JLINK_ReadMem (0x0800171A, 0x0002 Bytes, ...) -- CPU_ReadMem(64 bytes @ 0x08001700) -- Updating C cache (64 bytes @ 0x08001700) -- Read from C cache (2 bytes @ 0x0800171A) -- Data:  BD E8  returns 0x00 (0001ms, 2256ms total)
T07FC 014:365 JLINK_ReadMem (0x0800171C, 0x003C Bytes, ...) -- CPU_ReadMem(64 bytes @ 0x08001740) -- Updating C cache (64 bytes @ 0x08001740) -- Read from C cache (60 bytes @ 0x0800171C) -- Data:  F0 9F 08 B5 00 26 FF F7 69 FE 04 F0 57 FF 0B F0 ...  returns 0x00 (0002ms, 2258ms total)
T2200 022:328 JLINK_Step() -- Read from C cache (2 bytes @ 0x0800171E) -- CPU_WriteMem(8 bytes @ 0x200071D0) -- Simulated  returns 0x00 (0004ms, 2262ms total)
T2200 022:332 JLINK_ReadReg(R15)  returns 0x08001720 (0000ms, 2262ms total)
T2200 022:332 JLINK_ReadReg(XPSR)  returns 0x61000000 (0000ms, 2262ms total)
T2200 022:332 JLINK_ReadReg(R0)  returns 0x0800171F (0000ms, 2262ms total)
T2200 022:332 JLINK_ReadReg(R1)  returns 0x200071D8 (0000ms, 2262ms total)
T2200 022:332 JLINK_ReadReg(R2)  returns 0x00000000 (0000ms, 2262ms total)
T2200 022:332 JLINK_ReadReg(R3)  returns 0x0800F0C9 (0000ms, 2262ms total)
T2200 022:332 JLINK_ReadReg(R4)  returns 0x08014590 (0000ms, 2262ms total)
T2200 022:332 JLINK_ReadReg(R5)  returns 0x08014590 (0000ms, 2262ms total)
T2200 022:332 JLINK_ReadReg(R6)  returns 0xE000E000 (0000ms, 2262ms total)
T2200 022:332 JLINK_ReadReg(R7)  returns 0x00000000 (0000ms, 2262ms total)
T2200 022:332 JLINK_ReadReg(R8)  returns 0x00000000 (0000ms, 2262ms total)
T2200 022:332 JLINK_ReadReg(R9)  returns 0x20000160 (0000ms, 2262ms total)
T2200 022:332 JLINK_ReadReg(R10)  returns 0x00000000 (0000ms, 2262ms total)
T2200 022:332 JLINK_ReadReg(R11)  returns 0x00000000 (0000ms, 2262ms total)
T2200 022:332 JLINK_ReadReg(R12)  returns 0x08002887 (0000ms, 2262ms total)
T2200 022:332 JLINK_ReadReg(R13)  returns 0x200071D0 (0000ms, 2262ms total)
T2200 022:332 JLINK_ReadReg(R14)  returns 0x0800F035 (0000ms, 2262ms total)
T2200 022:332 JLINK_ReadReg(R15)  returns 0x08001720 (0000ms, 2262ms total)
T2200 022:332 JLINK_ReadReg(XPSR)  returns 0x61000000 (0000ms, 2262ms total)
T2200 022:332 JLINK_ReadReg(MSP)  returns 0x200071D0 (0000ms, 2262ms total)
T2200 022:332 JLINK_ReadReg(PSP)  returns 0x20000800 (0000ms, 2262ms total)
T2200 022:332 JLINK_ReadReg(CFBP)  returns 0x00000000 (0000ms, 2262ms total)
T07FC 022:334 JLINK_ReadMem (0x200071D4, 0x0004 Bytes, ...) -- CPU_ReadMem(64 bytes @ 0x200071C0) -- Updating C cache (64 bytes @ 0x200071C0) -- Read from C cache (4 bytes @ 0x200071D4) -- Data:  35 F0 00 08  returns 0x00 (0002ms, 2264ms total)
T07FC 022:336 JLINK_ReadMem (0x00000000, 0x0002 Bytes, ...) -- Unmirror addr 0x00000000 -- Read from C cache (2 bytes @ 0x08000000) -- Data:  D8 71  returns 0x00 (0000ms, 2264ms total)
T07FC 022:336 JLINK_ReadMemU32(0xE0001004, 0x0001 Items, ...) -- Data:  00 00 00 00  returns 0x01 (0000ms, 2264ms total)
T2200 023:729 JLINK_ReadMem (0x08001720, 0x003C Bytes, ...) -- Read from C cache (60 bytes @ 0x08001720) -- Data:  00 26 FF F7 69 FE 04 F0 57 FF 0B F0 E4 FF FF F7 ...  returns 0x00 (0001ms, 2265ms total)
T2200 023:730 JLINK_Step() -- Read from C cache (2 bytes @ 0x08001720) -- Simulated  returns 0x00 (0001ms, 2266ms total)
T2200 023:731 JLINK_ReadReg(R15)  returns 0x08001722 (0000ms, 2266ms total)
T2200 023:731 JLINK_ReadReg(XPSR)  returns 0x61000000 (0000ms, 2266ms total)
T2200 023:731 JLINK_ReadReg(R0)  returns 0x0800171F (0000ms, 2266ms total)
T2200 023:731 JLINK_ReadReg(R1)  returns 0x200071D8 (0000ms, 2266ms total)
T2200 023:731 JLINK_ReadReg(R2)  returns 0x00000000 (0000ms, 2266ms total)
T2200 023:731 JLINK_ReadReg(R3)  returns 0x0800F0C9 (0000ms, 2266ms total)
T2200 023:731 JLINK_ReadReg(R4)  returns 0x08014590 (0000ms, 2266ms total)
T2200 023:731 JLINK_ReadReg(R5)  returns 0x08014590 (0000ms, 2266ms total)
T2200 023:731 JLINK_ReadReg(R6)  returns 0x00000000 (0000ms, 2266ms total)
T2200 023:731 JLINK_ReadReg(R7)  returns 0x00000000 (0000ms, 2266ms total)
T2200 023:731 JLINK_ReadReg(R8)  returns 0x00000000 (0000ms, 2266ms total)
T2200 023:731 JLINK_ReadReg(R9)  returns 0x20000160 (0000ms, 2266ms total)
T2200 023:731 JLINK_ReadReg(R10)  returns 0x00000000 (0000ms, 2266ms total)
T2200 023:731 JLINK_ReadReg(R11)  returns 0x00000000 (0000ms, 2266ms total)
T2200 023:732 JLINK_ReadReg(R12)  returns 0x08002887 (0000ms, 2267ms total)
T2200 023:732 JLINK_ReadReg(R13)  returns 0x200071D0 (0000ms, 2267ms total)
T2200 023:732 JLINK_ReadReg(R14)  returns 0x0800F035 (0000ms, 2267ms total)
T2200 023:732 JLINK_ReadReg(R15)  returns 0x08001722 (0000ms, 2267ms total)
T2200 023:732 JLINK_ReadReg(XPSR)  returns 0x61000000 (0000ms, 2267ms total)
T2200 023:732 JLINK_ReadReg(MSP)  returns 0x200071D0 (0000ms, 2267ms total)
T2200 023:732 JLINK_ReadReg(PSP)  returns 0x20000800 (0000ms, 2267ms total)
T2200 023:732 JLINK_ReadReg(CFBP)  returns 0x00000000 (0000ms, 2267ms total)
T07FC 023:734 JLINK_ReadMem (0x200071D4, 0x0004 Bytes, ...) -- Read from C cache (4 bytes @ 0x200071D4) -- Data:  35 F0 00 08  returns 0x00 (0000ms, 2267ms total)
T07FC 023:734 JLINK_ReadMem (0x00000000, 0x0002 Bytes, ...) -- Unmirror addr 0x00000000 -- Read from C cache (2 bytes @ 0x08000000) -- Data:  D8 71  returns 0x00 (0000ms, 2267ms total)
T07FC 023:734 JLINK_ReadMemU32(0xE0001004, 0x0001 Items, ...) -- Data:  00 00 00 00  returns 0x01 (0001ms, 2268ms total)
T07FC 023:735 JLINK_ReadMem (0x08001720, 0x003C Bytes, ...) -- Read from C cache (60 bytes @ 0x08001720) -- Data:  00 26 FF F7 69 FE 04 F0 57 FF 0B F0 E4 FF FF F7 ...  returns 0x00 (0000ms, 2268ms total)
T2200 024:616 JLINK_SetBPEx(Addr = 0x08001726, Type = 0xFFFFFFF2)  returns 0x00000002 (0000ms, 2268ms total)
T2200 024:616 JLINK_Go() -- Invalidate MA0 status -- CPU_WriteMem(4 bytes @ 0xE0002008) (0004ms, 2272ms total)
T2200 024:721 JLINK_IsHalted()  returns TRUE (0004ms, 2276ms total)
T2200 024:725 JLINK_Halt()  returns 0x00 (0000ms, 2272ms total)
T2200 024:725 JLINK_IsHalted()  returns TRUE (0000ms, 2272ms total)
T2200 024:725 JLINK_IsHalted()  returns TRUE (0000ms, 2272ms total)
T2200 024:725 JLINK_IsHalted()  returns TRUE (0000ms, 2272ms total)
T2200 024:725 JLINK_ReadReg(R15)  returns 0x08001726 (0000ms, 2272ms total)
T2200 024:725 JLINK_ReadReg(XPSR)  returns 0x21000000 (0000ms, 2272ms total)
T2200 024:725 JLINK_ClrBPEx(BPHandle = 0x00000002)  returns 0x00 (0000ms, 2272ms total)
T2200 024:725 JLINK_ReadMemU32(0xE000ED30, 0x0001 Items, ...) -- CPU_ReadMem(4 bytes @ 0xE000ED30) -- Data:  0B 00 00 00  returns 0x01 (0001ms, 2273ms total)
T2200 024:726 JLINK_ReadMemU32(0xE0001028, 0x0001 Items, ...) -- CPU_ReadMem(4 bytes @ 0xE0001028) -- Data:  00 00 00 00  returns 0x01 (0001ms, 2274ms total)
T2200 024:727 JLINK_ReadMemU32(0xE0001038, 0x0001 Items, ...) -- CPU_ReadMem(4 bytes @ 0xE0001038) -- Data:  00 00 00 00  returns 0x01 (0001ms, 2275ms total)
T2200 024:728 JLINK_ReadMemU32(0xE0001048, 0x0001 Items, ...) -- CPU_ReadMem(4 bytes @ 0xE0001048) -- Data:  00 00 00 00  returns 0x01 (0001ms, 2276ms total)
T2200 024:729 JLINK_ReadMemU32(0xE0001058, 0x0001 Items, ...) -- CPU_ReadMem(4 bytes @ 0xE0001058) -- Data:  00 00 00 00  returns 0x01 (0001ms, 2277ms total)
T2200 024:730 JLINK_ReadReg(R0)  returns 0x00000003 (0001ms, 2278ms total)
T2200 024:731 JLINK_ReadReg(R1)  returns 0xE000E000 (0000ms, 2278ms total)
T2200 024:731 JLINK_ReadReg(R2)  returns 0xE000E000 (0000ms, 2278ms total)
T2200 024:731 JLINK_ReadReg(R3)  returns 0x0800F0C9 (0000ms, 2278ms total)
T2200 024:731 JLINK_ReadReg(R4)  returns 0x08014590 (0000ms, 2278ms total)
T2200 024:731 JLINK_ReadReg(R5)  returns 0x08014590 (0000ms, 2278ms total)
T2200 024:731 JLINK_ReadReg(R6)  returns 0x00000000 (0000ms, 2278ms total)
T2200 024:731 JLINK_ReadReg(R7)  returns 0x00000000 (0000ms, 2278ms total)
T2200 024:731 JLINK_ReadReg(R8)  returns 0x00000000 (0000ms, 2278ms total)
T2200 024:731 JLINK_ReadReg(R9)  returns 0x20000160 (0000ms, 2278ms total)
T2200 024:731 JLINK_ReadReg(R10)  returns 0x00000000 (0000ms, 2278ms total)
T2200 024:731 JLINK_ReadReg(R11)  returns 0x00000000 (0000ms, 2278ms total)
T2200 024:731 JLINK_ReadReg(R12)  returns 0x08002887 (0000ms, 2278ms total)
T2200 024:731 JLINK_ReadReg(R13)  returns 0x200071D0 (0000ms, 2278ms total)
T2200 024:731 JLINK_ReadReg(R14)  returns 0x08001403 (0000ms, 2278ms total)
T2200 024:731 JLINK_ReadReg(R15)  returns 0x08001726 (0000ms, 2278ms total)
T2200 024:731 JLINK_ReadReg(XPSR)  returns 0x21000000 (0000ms, 2278ms total)
T2200 024:731 JLINK_ReadReg(MSP)  returns 0x200071D0 (0000ms, 2278ms total)
T2200 024:731 JLINK_ReadReg(PSP)  returns 0x20000800 (0000ms, 2278ms total)
T2200 024:731 JLINK_ReadReg(CFBP)  returns 0x00000000 (0000ms, 2278ms total)
T07FC 024:732 JLINK_ReadMem (0x200071D4, 0x0004 Bytes, ...) -- CPU_ReadMem(64 bytes @ 0x200071C0) -- Updating C cache (64 bytes @ 0x200071C0) -- Read from C cache (4 bytes @ 0x200071D4) -- Data:  35 F0 00 08  returns 0x00 (0002ms, 2280ms total)
T07FC 024:734 JLINK_ReadMem (0x00000000, 0x0002 Bytes, ...)
                JLINK_ReadMemHW(0x00000000, 0x0004 Bytes, ...) -- CPU_ReadMem(4 bytes @ 0x00000000) -- Data:  D8 71 00 20  returns 0x00 (0001ms, 0001ms total)
                JLINK_ReadMemHW(0x08000000, 0x0004 Bytes, ...) -- CPU_ReadMem(4 bytes @ 0x08000000) -- Data:  D8 71 00 20  returns 0x00 (0001ms, 0002ms total)
                JLINK_WriteMemHW(0x00000000, 0x0004 Bytes, ...) -- Data:  09 00 01 00 -- CPU_WriteMem(4 bytes @ 0x00000000)  returns 0x04 (0001ms, 0003ms total)
                JLINK_ReadMemHW(0x00000000, 0x0004 Bytes, ...) -- CPU_ReadMem(4 bytes @ 0x00000000) -- Data:  D8 71 00 20  returns 0x00 (0000ms, 0003ms total)
               -- MA0 is in flash -- Unmirror addr 0x00000000 -- CPU_ReadMem(64 bytes @ 0x08000000) -- Updating C cache (64 bytes @ 0x08000000) -- Read from C cache (2 bytes @ 0x08000000) -- Data:  D8 71  returns 0x00 (0004ms, 2284ms total)
T07FC 024:739 JLINK_ReadMemU32(0xE0001004, 0x0001 Items, ...) -- CPU_ReadMem(4 bytes @ 0xE0001004) -- Data:  00 00 00 00  returns 0x01 (0000ms, 2284ms total)
T2200 025:393 JLINK_ReadMem (0x08001726, 0x0002 Bytes, ...) -- CPU_ReadMem(64 bytes @ 0x08001700) -- Updating C cache (64 bytes @ 0x08001700) -- Read from C cache (2 bytes @ 0x08001726) -- Data:  04 F0  returns 0x00 (0001ms, 2285ms total)
T2200 025:394 JLINK_ReadMem (0x08001728, 0x003C Bytes, ...) -- CPU_ReadMem(64 bytes @ 0x08001740) -- Updating C cache (64 bytes @ 0x08001740) -- Read from C cache (60 bytes @ 0x08001728) -- Data:  57 FF 0B F0 E4 FF FF F7 D5 FE 4F F4 C8 72 00 21 ...  returns 0x00 (0001ms, 2286ms total)
T2200 025:395 JLINK_SetBPEx(Addr = 0x0800172A, Type = 0xFFFFFFF2)  returns 0x00000003 (0000ms, 2286ms total)
T2200 025:395 JLINK_Go() -- Invalidate MA0 status -- CPU_WriteMem(4 bytes @ 0xE0002008) (0003ms, 2289ms total)
T2200 025:498 JLINK_IsHalted()  returns FALSE (0000ms, 2289ms total)
T2200 025:599 JLINK_IsHalted()  returns FALSE (0001ms, 2290ms total)
T2200 025:700 JLINK_IsHalted()  returns FALSE (0000ms, 2289ms total)
T2200 025:801 JLINK_IsHalted()  returns TRUE (0005ms, 2294ms total)
T2200 025:806 JLINK_Halt()  returns 0x00 (0000ms, 2289ms total)
T2200 025:806 JLINK_IsHalted()  returns TRUE (0000ms, 2289ms total)
T2200 025:806 JLINK_IsHalted()  returns TRUE (0000ms, 2289ms total)
T2200 025:806 JLINK_IsHalted()  returns TRUE (0000ms, 2289ms total)
T2200 025:806 JLINK_ReadReg(R15)  returns 0x0800172A (0000ms, 2289ms total)
T2200 025:806 JLINK_ReadReg(XPSR)  returns 0x61000000 (0000ms, 2289ms total)
T2200 025:806 JLINK_ClrBPEx(BPHandle = 0x00000003)  returns 0x00 (0000ms, 2289ms total)
T2200 025:806 JLINK_ReadMemU32(0xE000ED30, 0x0001 Items, ...) -- CPU_ReadMem(4 bytes @ 0xE000ED30) -- Data:  0B 00 00 00  returns 0x01 (0001ms, 2290ms total)
T2200 025:807 JLINK_ReadMemU32(0xE0001028, 0x0001 Items, ...) -- CPU_ReadMem(4 bytes @ 0xE0001028) -- Data:  00 00 00 00  returns 0x01 (0001ms, 2291ms total)
T2200 025:808 JLINK_ReadMemU32(0xE0001038, 0x0001 Items, ...) -- CPU_ReadMem(4 bytes @ 0xE0001038) -- Data:  00 00 00 00  returns 0x01 (0001ms, 2292ms total)
T2200 025:809 JLINK_ReadMemU32(0xE0001048, 0x0001 Items, ...) -- CPU_ReadMem(4 bytes @ 0xE0001048) -- Data:  00 00 00 00  returns 0x01 (0001ms, 2293ms total)
T2200 025:810 JLINK_ReadMemU32(0xE0001058, 0x0001 Items, ...) -- CPU_ReadMem(4 bytes @ 0xE0001058) -- Data:  00 00 00 00  returns 0x01 (0001ms, 2294ms total)
T2200 025:811 JLINK_ReadReg(R0)  returns 0x00000000 (0000ms, 2294ms total)
T2200 025:811 JLINK_ReadReg(R1)  returns 0x00000020 (0000ms, 2294ms total)
T2200 025:811 JLINK_ReadReg(R2)  returns 0xE000E000 (0000ms, 2294ms total)
T2200 025:811 JLINK_ReadReg(R3)  returns 0x0800F0C9 (0000ms, 2294ms total)
T2200 025:811 JLINK_ReadReg(R4)  returns 0x08014590 (0000ms, 2294ms total)
T2200 025:811 JLINK_ReadReg(R5)  returns 0x08014590 (0000ms, 2294ms total)
T2200 025:811 JLINK_ReadReg(R6)  returns 0x00000000 (0000ms, 2294ms total)
T2200 025:811 JLINK_ReadReg(R7)  returns 0x00000000 (0000ms, 2294ms total)
T2200 025:811 JLINK_ReadReg(R8)  returns 0x00000000 (0000ms, 2294ms total)
T2200 025:811 JLINK_ReadReg(R9)  returns 0x20000160 (0000ms, 2294ms total)
T2200 025:811 JLINK_ReadReg(R10)  returns 0x00000000 (0000ms, 2294ms total)
T2200 025:811 JLINK_ReadReg(R11)  returns 0x00000000 (0000ms, 2294ms total)
T2200 025:811 JLINK_ReadReg(R12)  returns 0x00000010 (0000ms, 2294ms total)
T2200 025:811 JLINK_ReadReg(R13)  returns 0x200071D0 (0000ms, 2294ms total)
T2200 025:811 JLINK_ReadReg(R14)  returns 0x080065B9 (0000ms, 2294ms total)
T2200 025:811 JLINK_ReadReg(R15)  returns 0x0800172A (0000ms, 2294ms total)
T2200 025:811 JLINK_ReadReg(XPSR)  returns 0x61000000 (0000ms, 2294ms total)
T2200 025:811 JLINK_ReadReg(MSP)  returns 0x200071D0 (0000ms, 2294ms total)
T2200 025:811 JLINK_ReadReg(PSP)  returns 0x20000800 (0000ms, 2294ms total)
T2200 025:811 JLINK_ReadReg(CFBP)  returns 0x00000000 (0000ms, 2294ms total)
T07FC 025:812 JLINK_ReadMem (0x200071D4, 0x0004 Bytes, ...) -- CPU_ReadMem(64 bytes @ 0x200071C0) -- Updating C cache (64 bytes @ 0x200071C0) -- Read from C cache (4 bytes @ 0x200071D4) -- Data:  35 F0 00 08  returns 0x00 (0002ms, 2296ms total)
T07FC 025:814 JLINK_ReadMem (0x00000000, 0x0002 Bytes, ...)
                JLINK_ReadMemHW(0x00000000, 0x0004 Bytes, ...) -- CPU_ReadMem(4 bytes @ 0x00000000) -- Data:  D8 71 00 20  returns 0x00 (0001ms, 0001ms total)
                JLINK_ReadMemHW(0x08000000, 0x0004 Bytes, ...) -- CPU_ReadMem(4 bytes @ 0x08000000) -- Data:  D8 71 00 20  returns 0x00 (0001ms, 0002ms total)
                JLINK_WriteMemHW(0x00000000, 0x0004 Bytes, ...) -- Data:  09 00 01 00 -- CPU_WriteMem(4 bytes @ 0x00000000)  returns 0x04 (0001ms, 0003ms total)
                JLINK_ReadMemHW(0x00000000, 0x0004 Bytes, ...) -- CPU_ReadMem(4 bytes @ 0x00000000) -- Data:  D8 71 00 20  returns 0x00 (0001ms, 0004ms total)
               -- MA0 is in flash -- Unmirror addr 0x00000000 -- CPU_ReadMem(64 bytes @ 0x08000000) -- Updating C cache (64 bytes @ 0x08000000) -- Read from C cache (2 bytes @ 0x08000000) -- Data:  D8 71  returns 0x00 (0005ms, 2301ms total)
T07FC 025:819 JLINK_ReadMemU32(0xE0001004, 0x0001 Items, ...) -- CPU_ReadMem(4 bytes @ 0xE0001004) -- Data:  00 00 00 00  returns 0x01 (0001ms, 2302ms total)
T2200 033:640 JLINK_ReadMem (0x0800172A, 0x0002 Bytes, ...) -- CPU_ReadMem(64 bytes @ 0x08001700) -- Updating C cache (64 bytes @ 0x08001700) -- Read from C cache (2 bytes @ 0x0800172A) -- Data:  0B F0  returns 0x00 (0003ms, 2305ms total)
T2200 033:643 JLINK_ReadMem (0x0800172C, 0x003C Bytes, ...) -- CPU_ReadMem(64 bytes @ 0x08001740) -- Updating C cache (64 bytes @ 0x08001740) -- Read from C cache (60 bytes @ 0x0800172C) -- Data:  E4 FF FF F7 D5 FE 4F F4 C8 72 00 21 4F F4 16 70 ...  returns 0x00 (0001ms, 2306ms total)
T2200 033:669 JLINK_Step() -- Read from C cache (2 bytes @ 0x0800172A) -- Read from C cache (2 bytes @ 0x0800172C) -- Simulated  returns 0x00 (0001ms, 2307ms total)
T2200 033:670 JLINK_ReadReg(R15)  returns 0x0800D6F6 (0000ms, 2307ms total)
T2200 033:670 JLINK_ReadReg(XPSR)  returns 0x61000000 (0000ms, 2307ms total)
T2200 033:670 JLINK_ReadReg(R0)  returns 0x00000000 (0000ms, 2307ms total)
T2200 033:670 JLINK_ReadReg(R1)  returns 0x00000020 (0001ms, 2308ms total)
T2200 033:671 JLINK_ReadReg(R2)  returns 0xE000E000 (0000ms, 2308ms total)
T2200 033:671 JLINK_ReadReg(R3)  returns 0x0800F0C9 (0000ms, 2308ms total)
T2200 033:671 JLINK_ReadReg(R4)  returns 0x08014590 (0000ms, 2308ms total)
T2200 033:671 JLINK_ReadReg(R5)  returns 0x08014590 (0000ms, 2308ms total)
T2200 033:671 JLINK_ReadReg(R6)  returns 0x00000000 (0000ms, 2308ms total)
T2200 033:671 JLINK_ReadReg(R7)  returns 0x00000000 (0000ms, 2308ms total)
T2200 033:671 JLINK_ReadReg(R8)  returns 0x00000000 (0000ms, 2308ms total)
T2200 033:671 JLINK_ReadReg(R9)  returns 0x20000160 (0000ms, 2308ms total)
T2200 033:671 JLINK_ReadReg(R10)  returns 0x00000000 (0000ms, 2308ms total)
T2200 033:671 JLINK_ReadReg(R11)  returns 0x00000000 (0000ms, 2308ms total)
T2200 033:671 JLINK_ReadReg(R12)  returns 0x00000010 (0000ms, 2308ms total)
T2200 033:671 JLINK_ReadReg(R13)  returns 0x200071D0 (0000ms, 2308ms total)
T2200 033:671 JLINK_ReadReg(R14)  returns 0x0800172F (0000ms, 2308ms total)
T2200 033:671 JLINK_ReadReg(R15)  returns 0x0800D6F6 (0000ms, 2308ms total)
T2200 033:671 JLINK_ReadReg(XPSR)  returns 0x61000000 (0000ms, 2308ms total)
T2200 033:671 JLINK_ReadReg(MSP)  returns 0x200071D0 (0000ms, 2308ms total)
T2200 033:671 JLINK_ReadReg(PSP)  returns 0x20000800 (0000ms, 2308ms total)
T2200 033:671 JLINK_ReadReg(CFBP)  returns 0x00000000 (0000ms, 2308ms total)
T07FC 033:673 JLINK_ReadMem (0x200071D4, 0x0004 Bytes, ...) -- Read from C cache (4 bytes @ 0x200071D4) -- Data:  35 F0 00 08  returns 0x00 (0000ms, 2308ms total)
T07FC 033:673 JLINK_ReadMem (0x00000000, 0x0004 Bytes, ...) -- Unmirror addr 0x00000000 -- Read from C cache (4 bytes @ 0x08000000) -- Data:  D8 71 00 20  returns 0x00 (0000ms, 2308ms total)
T07FC 033:676 JLINK_ReadMemU32(0xE0001004, 0x0001 Items, ...) -- Data:  00 00 00 00  returns 0x01 (0000ms, 2308ms total)
T07FC 033:676 JLINK_ReadMem (0x0800D6F4, 0x003C Bytes, ...) -- CPU_ReadMem(128 bytes @ 0x0800D6C0) -- Updating C cache (128 bytes @ 0x0800D6C0) -- Read from C cache (60 bytes @ 0x0800D6F4) -- Data:  10 BD 10 B5 2E 20 0C 49 08 70 FE F7 73 FE 06 48 ...  returns 0x00 (0003ms, 2311ms total)
T2200 036:032 JLINK_Step() -- Read from C cache (2 bytes @ 0x0800D6F6) -- CPU_WriteMem(8 bytes @ 0x200071C8) -- Simulated  returns 0x00 (0002ms, 2313ms total)
T2200 036:034 JLINK_ReadReg(R15)  returns 0x0800D6F8 (0000ms, 2313ms total)
T2200 036:034 JLINK_ReadReg(XPSR)  returns 0x61000000 (0000ms, 2313ms total)
T2200 036:034 JLINK_ReadReg(R0)  returns 0x00000000 (0000ms, 2313ms total)
T2200 036:034 JLINK_ReadReg(R1)  returns 0x00000020 (0000ms, 2313ms total)
T2200 036:034 JLINK_ReadReg(R2)  returns 0xE000E000 (0000ms, 2313ms total)
T2200 036:034 JLINK_ReadReg(R3)  returns 0x0800F0C9 (0000ms, 2313ms total)
T2200 036:034 JLINK_ReadReg(R4)  returns 0x08014590 (0000ms, 2313ms total)
T2200 036:034 JLINK_ReadReg(R5)  returns 0x08014590 (0000ms, 2313ms total)
T2200 036:034 JLINK_ReadReg(R6)  returns 0x00000000 (0000ms, 2313ms total)
T2200 036:034 JLINK_ReadReg(R7)  returns 0x00000000 (0000ms, 2313ms total)
T2200 036:034 JLINK_ReadReg(R8)  returns 0x00000000 (0000ms, 2313ms total)
T2200 036:034 JLINK_ReadReg(R9)  returns 0x20000160 (0000ms, 2313ms total)
T2200 036:034 JLINK_ReadReg(R10)  returns 0x00000000 (0000ms, 2313ms total)
T2200 036:034 JLINK_ReadReg(R11)  returns 0x00000000 (0000ms, 2313ms total)
T2200 036:034 JLINK_ReadReg(R12)  returns 0x00000010 (0000ms, 2313ms total)
T2200 036:034 JLINK_ReadReg(R13)  returns 0x200071C8 (0001ms, 2314ms total)
T2200 036:035 JLINK_ReadReg(R14)  returns 0x0800172F (0000ms, 2314ms total)
T2200 036:035 JLINK_ReadReg(R15)  returns 0x0800D6F8 (0000ms, 2314ms total)
T2200 036:035 JLINK_ReadReg(XPSR)  returns 0x61000000 (0000ms, 2314ms total)
T2200 036:035 JLINK_ReadReg(MSP)  returns 0x200071C8 (0000ms, 2314ms total)
T2200 036:035 JLINK_ReadReg(PSP)  returns 0x20000800 (0000ms, 2314ms total)
T2200 036:035 JLINK_ReadReg(CFBP)  returns 0x00000000 (0000ms, 2314ms total)
T07FC 036:037 JLINK_ReadMem (0x200071CC, 0x0004 Bytes, ...) -- CPU_ReadMem(64 bytes @ 0x200071C0) -- Updating C cache (64 bytes @ 0x200071C0) -- Read from C cache (4 bytes @ 0x200071CC) -- Data:  2F 17 00 08  returns 0x00 (0001ms, 2315ms total)
T07FC 036:038 JLINK_ReadMem (0x200071C8, 0x0004 Bytes, ...) -- Read from C cache (4 bytes @ 0x200071C8) -- Data:  90 45 01 08  returns 0x00 (0000ms, 2315ms total)
T07FC 036:038 JLINK_ReadMem (0x200071D4, 0x0004 Bytes, ...) -- Read from C cache (4 bytes @ 0x200071D4) -- Data:  35 F0 00 08  returns 0x00 (0000ms, 2315ms total)
T07FC 036:038 JLINK_ReadMem (0x00000000, 0x0004 Bytes, ...) -- Unmirror addr 0x00000000 -- Read from C cache (4 bytes @ 0x08000000) -- Data:  D8 71 00 20  returns 0x00 (0000ms, 2315ms total)
T07FC 036:038 JLINK_ReadMemU32(0xE0001004, 0x0001 Items, ...) -- Data:  00 00 00 00  returns 0x01 (0001ms, 2316ms total)
T07FC 036:039 JLINK_ReadMem (0x0800D6F6, 0x0002 Bytes, ...) -- Read from C cache (2 bytes @ 0x0800D6F6) -- Data:  10 B5  returns 0x00 (0000ms, 2316ms total)
T07FC 036:039 JLINK_ReadMem (0x0800D6F8, 0x003C Bytes, ...) -- Read from C cache (60 bytes @ 0x0800D6F8) -- Data:  2E 20 0C 49 08 70 FE F7 73 FE 06 48 00 1F FF F7 ...  returns 0x00 (0000ms, 2316ms total)
T2200 038:725 JLINK_SetBPEx(Addr = 0x0800172E, Type = 0xFFFFFFF2)  returns 0x00000004 (0000ms, 2316ms total)
T2200 038:725 JLINK_Go() -- Invalidate MA0 status -- CPU_WriteMem(4 bytes @ 0xE0002008) (0005ms, 2321ms total)
T2200 038:830 JLINK_IsHalted()  returns FALSE (0001ms, 2322ms total)
T2200 038:932 JLINK_IsHalted()  returns FALSE (0000ms, 2321ms total)
T2200 039:032 JLINK_IsHalted()  returns FALSE (0001ms, 2322ms total)
T2200 039:134 JLINK_IsHalted()  returns FALSE (0000ms, 2321ms total)
T2200 039:235 JLINK_IsHalted()  returns FALSE (0001ms, 2322ms total)
T2200 039:336 JLINK_ReadMemU32(0xE0001004, 0x0001 Items, ...) -- CPU is running -- CPU_ReadMem(4 bytes @ 0xE0001004) -- Data:  00 00 00 00  returns 0x01 (0000ms, 2321ms total)
T2200 039:336 JLINK_IsHalted()  returns FALSE (0001ms, 2322ms total)
T2200 039:438 JLINK_IsHalted()  returns FALSE (0001ms, 2322ms total)
T2200 039:539 JLINK_IsHalted()  returns FALSE (0001ms, 2322ms total)
T2200 039:641 JLINK_IsHalted()  returns FALSE (0000ms, 2321ms total)
T2200 039:741 JLINK_IsHalted()  returns FALSE (0002ms, 2323ms total)
T2200 039:844 JLINK_IsHalted()  returns FALSE (0000ms, 2321ms total)
T2200 039:945 JLINK_ReadMemU32(0xE0001004, 0x0001 Items, ...) -- CPU is running -- CPU_ReadMem(4 bytes @ 0xE0001004) -- Data:  00 00 00 00  returns 0x01 (0000ms, 2321ms total)
T2200 039:945 JLINK_IsHalted()  returns FALSE (0001ms, 2322ms total)
T2200 040:047 JLINK_IsHalted()  returns FALSE (0000ms, 2321ms total)
T2200 040:148 JLINK_IsHalted()  returns TRUE (0004ms, 2325ms total)
T2200 040:152 JLINK_Halt()  returns 0x00 (0000ms, 2321ms total)
T2200 040:152 JLINK_IsHalted()  returns TRUE (0000ms, 2321ms total)
T2200 040:152 JLINK_IsHalted()  returns TRUE (0000ms, 2321ms total)
T2200 040:152 JLINK_IsHalted()  returns TRUE (0000ms, 2321ms total)
T2200 040:152 JLINK_ReadReg(R15)  returns 0x0800172E (0000ms, 2321ms total)
T2200 040:152 JLINK_ReadReg(XPSR)  returns 0x01000000 (0000ms, 2321ms total)
T2200 040:152 JLINK_ClrBPEx(BPHandle = 0x00000004)  returns 0x00 (0000ms, 2321ms total)
T2200 040:152 JLINK_ReadMemU32(0xE000ED30, 0x0001 Items, ...) -- CPU_ReadMem(4 bytes @ 0xE000ED30) -- Data:  0B 00 00 00  returns 0x01 (0001ms, 2322ms total)
T2200 040:153 JLINK_ReadMemU32(0xE0001028, 0x0001 Items, ...) -- CPU_ReadMem(4 bytes @ 0xE0001028) -- Data:  00 00 00 00  returns 0x01 (0001ms, 2323ms total)
T2200 040:154 JLINK_ReadMemU32(0xE0001038, 0x0001 Items, ...) -- CPU_ReadMem(4 bytes @ 0xE0001038) -- Data:  00 00 00 00  returns 0x01 (0000ms, 2323ms total)
T2200 040:154 JLINK_ReadMemU32(0xE0001048, 0x0001 Items, ...) -- CPU_ReadMem(4 bytes @ 0xE0001048) -- Data:  00 00 00 00  returns 0x01 (0001ms, 2324ms total)
T2200 040:155 JLINK_ReadMemU32(0xE0001058, 0x0001 Items, ...) -- CPU_ReadMem(4 bytes @ 0xE0001058) -- Data:  00 00 00 00  returns 0x01 (0001ms, 2325ms total)
T2200 040:156 JLINK_ReadReg(R0)  returns 0x00000000 (0000ms, 2325ms total)
T2200 040:156 JLINK_ReadReg(R1)  returns 0x00000002 (0000ms, 2325ms total)
T2200 040:156 JLINK_ReadReg(R2)  returns 0x080010B1 (0000ms, 2325ms total)
T2200 040:156 JLINK_ReadReg(R3)  returns 0x00000000 (0000ms, 2325ms total)
T2200 040:156 JLINK_ReadReg(R4)  returns 0x08014590 (0000ms, 2325ms total)
T2200 040:156 JLINK_ReadReg(R5)  returns 0x08014590 (0000ms, 2325ms total)
T2200 040:156 JLINK_ReadReg(R6)  returns 0x00000000 (0000ms, 2325ms total)
T2200 040:156 JLINK_ReadReg(R7)  returns 0x00000000 (0000ms, 2325ms total)
T2200 040:156 JLINK_ReadReg(R8)  returns 0x00000000 (0000ms, 2325ms total)
T2200 040:156 JLINK_ReadReg(R9)  returns 0x20000160 (0000ms, 2325ms total)
T2200 040:156 JLINK_ReadReg(R10)  returns 0x00000000 (0000ms, 2325ms total)
T2200 040:156 JLINK_ReadReg(R11)  returns 0x00000000 (0000ms, 2325ms total)
T2200 040:156 JLINK_ReadReg(R12)  returns 0x08002887 (0000ms, 2325ms total)
T2200 040:156 JLINK_ReadReg(R13)  returns 0x200071D0 (0000ms, 2325ms total)
T2200 040:156 JLINK_ReadReg(R14)  returns 0x08001177 (0000ms, 2325ms total)
T2200 040:156 JLINK_ReadReg(R15)  returns 0x0800172E (0000ms, 2325ms total)
T2200 040:156 JLINK_ReadReg(XPSR)  returns 0x01000000 (0000ms, 2325ms total)
T2200 040:156 JLINK_ReadReg(MSP)  returns 0x200071D0 (0000ms, 2325ms total)
T2200 040:156 JLINK_ReadReg(PSP)  returns 0x20000800 (0000ms, 2325ms total)
T2200 040:156 JLINK_ReadReg(CFBP)  returns 0x00000000 (0000ms, 2325ms total)
T07FC 040:157 JLINK_ReadMem (0x200071D4, 0x0004 Bytes, ...) -- CPU_ReadMem(64 bytes @ 0x200071C0) -- Updating C cache (64 bytes @ 0x200071C0) -- Read from C cache (4 bytes @ 0x200071D4) -- Data:  35 F0 00 08  returns 0x00 (0002ms, 2327ms total)
T07FC 040:166 JLINK_ReadMem (0x00000000, 0x0002 Bytes, ...)
                JLINK_ReadMemHW(0x00000000, 0x0004 Bytes, ...) -- CPU_ReadMem(4 bytes @ 0x00000000) -- Data:  D8 71 00 20  returns 0x00 (0001ms, 0001ms total)
                JLINK_ReadMemHW(0x08000000, 0x0004 Bytes, ...) -- CPU_ReadMem(4 bytes @ 0x08000000) -- Data:  D8 71 00 20  returns 0x00 (0001ms, 0002ms total)
                JLINK_WriteMemHW(0x00000000, 0x0004 Bytes, ...) -- Data:  09 00 01 00 -- CPU_WriteMem(4 bytes @ 0x00000000)  returns 0x04 (0001ms, 0003ms total)
                JLINK_ReadMemHW(0x00000000, 0x0004 Bytes, ...) -- CPU_ReadMem(4 bytes @ 0x00000000) -- Data:  D8 71 00 20  returns 0x00 (0001ms, 0004ms total)
               -- MA0 is in flash -- Unmirror addr 0x00000000 -- CPU_ReadMem(64 bytes @ 0x08000000) -- Updating C cache (64 bytes @ 0x08000000) -- Read from C cache (2 bytes @ 0x08000000) -- Data:  D8 71  returns 0x00 (0005ms, 2332ms total)
T07FC 040:171 JLINK_ReadMemU32(0xE0001004, 0x0001 Items, ...) -- CPU_ReadMem(4 bytes @ 0xE0001004) -- Data:  00 00 00 00  returns 0x01 (0001ms, 2333ms total)
T07FC 040:172 JLINK_ReadMem (0x0800172A, 0x0002 Bytes, ...) -- CPU_ReadMem(64 bytes @ 0x08001700) -- Updating C cache (64 bytes @ 0x08001700) -- Read from C cache (2 bytes @ 0x0800172A) -- Data:  0B F0  returns 0x00 (0002ms, 2335ms total)
T07FC 040:174 JLINK_ReadMem (0x0800172C, 0x003C Bytes, ...) -- CPU_ReadMem(64 bytes @ 0x08001740) -- Updating C cache (64 bytes @ 0x08001740) -- Read from C cache (60 bytes @ 0x0800172C) -- Data:  E4 FF FF F7 D5 FE 4F F4 C8 72 00 21 4F F4 16 70 ...  returns 0x00 (0001ms, 2336ms total)
T2200 045:452 JLINK_Step() -- Read from C cache (2 bytes @ 0x0800172E) -- Read from C cache (2 bytes @ 0x08001730) -- Simulated  returns 0x00 (0002ms, 2338ms total)
T2200 045:454 JLINK_ReadReg(R15)  returns 0x080014DC (0000ms, 2338ms total)
T2200 045:454 JLINK_ReadReg(XPSR)  returns 0x01000000 (0000ms, 2338ms total)
T2200 045:454 JLINK_ReadReg(R0)  returns 0x00000000 (0000ms, 2338ms total)
T2200 045:454 JLINK_ReadReg(R1)  returns 0x00000002 (0000ms, 2338ms total)
T2200 045:454 JLINK_ReadReg(R2)  returns 0x080010B1 (0000ms, 2338ms total)
T2200 045:454 JLINK_ReadReg(R3)  returns 0x00000000 (0000ms, 2338ms total)
T2200 045:454 JLINK_ReadReg(R4)  returns 0x08014590 (0000ms, 2338ms total)
T2200 045:454 JLINK_ReadReg(R5)  returns 0x08014590 (0000ms, 2338ms total)
T2200 045:454 JLINK_ReadReg(R6)  returns 0x00000000 (0000ms, 2338ms total)
T2200 045:454 JLINK_ReadReg(R7)  returns 0x00000000 (0000ms, 2338ms total)
T2200 045:454 JLINK_ReadReg(R8)  returns 0x00000000 (0000ms, 2338ms total)
T2200 045:454 JLINK_ReadReg(R9)  returns 0x20000160 (0000ms, 2338ms total)
T2200 045:454 JLINK_ReadReg(R10)  returns 0x00000000 (0000ms, 2338ms total)
T2200 045:454 JLINK_ReadReg(R11)  returns 0x00000000 (0000ms, 2338ms total)
T2200 045:454 JLINK_ReadReg(R12)  returns 0x08002887 (0000ms, 2338ms total)
T2200 045:454 JLINK_ReadReg(R13)  returns 0x200071D0 (0000ms, 2338ms total)
T2200 045:454 JLINK_ReadReg(R14)  returns 0x08001733 (0000ms, 2338ms total)
T2200 045:454 JLINK_ReadReg(R15)  returns 0x080014DC (0000ms, 2338ms total)
T2200 045:454 JLINK_ReadReg(XPSR)  returns 0x01000000 (0000ms, 2338ms total)
T2200 045:454 JLINK_ReadReg(MSP)  returns 0x200071D0 (0000ms, 2338ms total)
T2200 045:454 JLINK_ReadReg(PSP)  returns 0x20000800 (0000ms, 2338ms total)
T2200 045:454 JLINK_ReadReg(CFBP)  returns 0x00000000 (0000ms, 2338ms total)
T07FC 045:458 JLINK_ReadMem (0x200071D4, 0x0004 Bytes, ...) -- Read from C cache (4 bytes @ 0x200071D4) -- Data:  35 F0 00 08  returns 0x00 (0000ms, 2338ms total)
T07FC 045:458 JLINK_ReadMem (0x00000000, 0x0004 Bytes, ...) -- Unmirror addr 0x00000000 -- Read from C cache (4 bytes @ 0x08000000) -- Data:  D8 71 00 20  returns 0x00 (0000ms, 2338ms total)
T07FC 045:462 JLINK_ReadMemU32(0xE0001004, 0x0001 Items, ...) -- Data:  00 00 00 00  returns 0x01 (0000ms, 2338ms total)
T07FC 045:462 JLINK_ReadMem (0x080013DC, 0x003C Bytes, ...) -- CPU_ReadMem(128 bytes @ 0x080013C0) -- Updating C cache (128 bytes @ 0x080013C0) -- Read from C cache (60 bytes @ 0x080013DC) -- Data:  27 FA 02 20 08 F0 39 FA 08 F0 44 FD 10 BD 00 00 ...  returns 0x00 (0003ms, 2341ms total)
T07FC 045:465 JLINK_ReadMem (0x08001418, 0x003C Bytes, ...) -- CPU_ReadMem(64 bytes @ 0x08001440) -- Updating C cache (64 bytes @ 0x08001440) -- Read from C cache (60 bytes @ 0x08001418) -- Data:  F1 F4 4F F4 FA 60 44 43 02 20 2C 49 08 80 4F F0 ...  returns 0x00 (0001ms, 2342ms total)
T07FC 045:466 JLINK_ReadMem (0x08001454, 0x003C Bytes, ...) -- CPU_ReadMem(64 bytes @ 0x08001480) -- Updating C cache (64 bytes @ 0x08001480) -- Read from C cache (60 bytes @ 0x08001454) -- Data:  03 FB 06 F4 00 BF 4F F0 E0 26 B1 69 10 E0 4F F0 ...  returns 0x00 (0001ms, 2343ms total)
T07FC 045:467 JLINK_ReadMem (0x08001490, 0x003C Bytes, ...) -- CPU_ReadMem(64 bytes @ 0x080014C0) -- Updating C cache (64 bytes @ 0x080014C0) -- Read from C cache (60 bytes @ 0x08001490) -- Data:  00 78 88 B1 0F 48 00 88 84 42 06 DB 0D 48 00 88 ...  returns 0x00 (0001ms, 2344ms total)
T07FC 045:468 JLINK_ReadMem (0x080014DA, 0x0002 Bytes, ...) -- Read from C cache (2 bytes @ 0x080014DA) -- Data:  00 20  returns 0x00 (0000ms, 2344ms total)
T07FC 045:468 JLINK_ReadMem (0x080014DC, 0x003C Bytes, ...) -- CPU_ReadMem(64 bytes @ 0x08001500) -- Updating C cache (64 bytes @ 0x08001500) -- Read from C cache (60 bytes @ 0x080014DC) -- Data:  2D E9 F0 5F 4F F0 3C 08 28 24 19 25 00 20 0C F0 ...  returns 0x00 (0002ms, 2346ms total)
T2200 050:193 JLINK_Step() -- Read from C cache (2 bytes @ 0x080014DC) -- Read from C cache (2 bytes @ 0x080014DE) -- Not simulated -- Invalidate MA0 status -- CPU_WriteMem(4 bytes @ 0xE0002008)  returns 0x00 (0008ms, 2354ms total)
T2200 050:201 JLINK_ReadReg(R15)  returns 0x080014E0 (0000ms, 2354ms total)
T2200 050:201 JLINK_ReadReg(XPSR)  returns 0x01000000 (0000ms, 2354ms total)
T2200 050:201 JLINK_ReadReg(R0)  returns 0x00000000 (0000ms, 2354ms total)
T2200 050:201 JLINK_ReadReg(R1)  returns 0x00000002 (0000ms, 2354ms total)
T2200 050:201 JLINK_ReadReg(R2)  returns 0x080010B1 (0000ms, 2354ms total)
T2200 050:201 JLINK_ReadReg(R3)  returns 0x00000000 (0000ms, 2354ms total)
T2200 050:201 JLINK_ReadReg(R4)  returns 0x08014590 (0000ms, 2354ms total)
T2200 050:201 JLINK_ReadReg(R5)  returns 0x08014590 (0000ms, 2354ms total)
T2200 050:201 JLINK_ReadReg(R6)  returns 0x00000000 (0000ms, 2354ms total)
T2200 050:201 JLINK_ReadReg(R7)  returns 0x00000000 (0000ms, 2354ms total)
T2200 050:201 JLINK_ReadReg(R8)  returns 0x00000000 (0000ms, 2354ms total)
T2200 050:201 JLINK_ReadReg(R9)  returns 0x20000160 (0000ms, 2354ms total)
T2200 050:201 JLINK_ReadReg(R10)  returns 0x00000000 (0000ms, 2354ms total)
T2200 050:201 JLINK_ReadReg(R11)  returns 0x00000000 (0000ms, 2354ms total)
T2200 050:201 JLINK_ReadReg(R12)  returns 0x08002887 (0000ms, 2354ms total)
T2200 050:201 JLINK_ReadReg(R13)  returns 0x200071A8 (0000ms, 2354ms total)
T2200 050:201 JLINK_ReadReg(R14)  returns 0x08001733 (0000ms, 2354ms total)
T2200 050:201 JLINK_ReadReg(R15)  returns 0x080014E0 (0000ms, 2354ms total)
T2200 050:201 JLINK_ReadReg(XPSR)  returns 0x01000000 (0000ms, 2354ms total)
T2200 050:201 JLINK_ReadReg(MSP)  returns 0x200071A8 (0000ms, 2354ms total)
T2200 050:201 JLINK_ReadReg(PSP)  returns 0x20000800 (0000ms, 2354ms total)
T2200 050:201 JLINK_ReadReg(CFBP)  returns 0x00000000 (0000ms, 2354ms total)
T07FC 050:202 JLINK_ReadMem (0x200071CC, 0x0004 Bytes, ...) -- CPU_ReadMem(64 bytes @ 0x200071C0) -- Updating C cache (64 bytes @ 0x200071C0) -- Read from C cache (4 bytes @ 0x200071CC) -- Data:  33 17 00 08  returns 0x00 (0002ms, 2356ms total)
T07FC 050:204 JLINK_ReadMem (0x200071A8, 0x0004 Bytes, ...) -- CPU_ReadMem(64 bytes @ 0x20007180) -- Updating C cache (64 bytes @ 0x20007180) -- Read from C cache (4 bytes @ 0x200071A8) -- Data:  90 45 01 08  returns 0x00 (0001ms, 2357ms total)
T07FC 050:205 JLINK_ReadMem (0x200071AC, 0x0004 Bytes, ...) -- Read from C cache (4 bytes @ 0x200071AC) -- Data:  90 45 01 08  returns 0x00 (0000ms, 2357ms total)
T07FC 050:205 JLINK_ReadMem (0x200071B0, 0x0004 Bytes, ...) -- Read from C cache (4 bytes @ 0x200071B0) -- Data:  00 00 00 00  returns 0x00 (0000ms, 2357ms total)
T07FC 050:205 JLINK_ReadMem (0x200071B4, 0x0004 Bytes, ...) -- Read from C cache (4 bytes @ 0x200071B4) -- Data:  00 00 00 00  returns 0x00 (0000ms, 2357ms total)
T07FC 050:205 JLINK_ReadMem (0x200071B8, 0x0004 Bytes, ...) -- Read from C cache (4 bytes @ 0x200071B8) -- Data:  00 00 00 00  returns 0x00 (0000ms, 2357ms total)
T07FC 050:205 JLINK_ReadMem (0x200071BC, 0x0004 Bytes, ...) -- Read from C cache (4 bytes @ 0x200071BC) -- Data:  60 01 00 20  returns 0x00 (0000ms, 2357ms total)
T07FC 050:205 JLINK_ReadMem (0x200071C0, 0x0004 Bytes, ...) -- Read from C cache (4 bytes @ 0x200071C0) -- Data:  00 00 00 00  returns 0x00 (0000ms, 2357ms total)
T07FC 050:205 JLINK_ReadMem (0x200071C4, 0x0004 Bytes, ...) -- Read from C cache (4 bytes @ 0x200071C4) -- Data:  00 00 00 00  returns 0x00 (0000ms, 2357ms total)
T07FC 050:205 JLINK_ReadMem (0x200071D4, 0x0004 Bytes, ...) -- Read from C cache (4 bytes @ 0x200071D4) -- Data:  35 F0 00 08  returns 0x00 (0000ms, 2357ms total)
T07FC 050:205 JLINK_ReadMem (0x00000000, 0x0004 Bytes, ...)
                JLINK_ReadMemHW(0x00000000, 0x0004 Bytes, ...) -- CPU_ReadMem(4 bytes @ 0x00000000) -- Data:  D8 71 00 20  returns 0x00 (0001ms, 0001ms total)
                JLINK_ReadMemHW(0x08000000, 0x0004 Bytes, ...) -- CPU_ReadMem(4 bytes @ 0x08000000) -- Data:  D8 71 00 20  returns 0x00 (0001ms, 0002ms total)
                JLINK_WriteMemHW(0x00000000, 0x0004 Bytes, ...) -- Data:  09 00 01 00 -- CPU_WriteMem(4 bytes @ 0x00000000)  returns 0x04 (0001ms, 0003ms total)
                JLINK_ReadMemHW(0x00000000, 0x0004 Bytes, ...) -- CPU_ReadMem(4 bytes @ 0x00000000) -- Data:  D8 71 00 20  returns 0x00 (0001ms, 0004ms total)
               -- MA0 is in flash -- Unmirror addr 0x00000000 -- CPU_ReadMem(64 bytes @ 0x08000000) -- Updating C cache (64 bytes @ 0x08000000) -- Read from C cache (4 bytes @ 0x08000000) -- Data:  D8 71 00 20  returns 0x00 (0005ms, 2362ms total)
T07FC 050:210 JLINK_ReadMemU32(0xE0001004, 0x0001 Items, ...) -- CPU_ReadMem(4 bytes @ 0xE0001004) -- Data:  00 00 00 00  returns 0x01 (0001ms, 2363ms total)
T2200 051:945 JLINK_ReadMem (0x080014E0, 0x003C Bytes, ...) -- CPU_ReadMem(128 bytes @ 0x080014C0) -- Updating C cache (128 bytes @ 0x080014C0) -- Read from C cache (60 bytes @ 0x080014E0) -- Data:  4F F0 3C 08 28 24 19 25 00 20 0C F0 05 FC 83 46 ...  returns 0x00 (0003ms, 2366ms total)
T2200 051:948 JLINK_Step() -- Read from C cache (2 bytes @ 0x080014E0) -- Read from C cache (2 bytes @ 0x080014E2) -- Simulated  returns 0x00 (0001ms, 2367ms total)
T2200 051:949 JLINK_ReadReg(R15)  returns 0x080014E4 (0000ms, 2367ms total)
T2200 051:949 JLINK_ReadReg(XPSR)  returns 0x01000000 (0000ms, 2367ms total)
T2200 051:949 JLINK_Step() -- Read from C cache (2 bytes @ 0x080014E4) -- Simulated  returns 0x00 (0000ms, 2367ms total)
